Circuit: * C:\Users\snigd\Downloads\EW-1\Draft4.asc

Direct Newton iteration for .op point succeeded.
Semiconductor Device Operating Points:
                        --- Diodes ---
Name:    d:u1:1
Model:   u1:dz5v
Id:      5.92e-05
Vd:      5.13e-01
Req:     5.55e+02
CAP:     6.63e-10

                        --- Bipolar Transistors ---
Name:     q:u1:1      q:u1:2      q:u1:14     q:u1:3      q:u1:4
Model:    u1:qpnp     u1:qpnp     u1:qpnp     u1:qnpn     u1:qnpn
Ib:       1.00e-09    1.95e-09    9.95e-10   -1.28e-11    8.69e-03
Ic:       1.04e-15   -9.48e-10   -9.98e-10   -1.18e-13   -1.14e-02
Vbe:      1.01e+00    1.01e+00   -3.67e-04   -2.24e+00    7.00e-01
Vbc:      0.00e+00    2.99e-01    5.44e-01    5.29e-03    7.06e-01
Vce:      1.01e+00    7.06e-01   -5.45e-01   -2.24e+00   -5.29e-03
BetaDC:   1.04e-06   -4.86e-01   -1.00e+00    9.22e-03   -1.31e+00
Gm:      -4.06e-14   -3.82e-19    4.13e-14   -4.20e-12   -9.59e-02
Rpi:      6.31e+11    6.31e+11    1.03e+08    1.00e+12    1.69e+02
Rx:       3.00e+00    3.00e+00    3.00e+00    1.37e+00    1.37e+00
Ro:       2.46e+13    2.62e+18    2.25e+17    2.38e+11    9.35e-01
Cbe:      4.31e-12    4.31e-12    5.70e-12    1.87e-11    4.17e-10
Cbc:      4.32e-12    3.87e-12    3.61e-12    1.52e-11    1.12e-07
Cjs:      0.00e+00    0.00e+00    0.00e+00    0.00e+00    0.00e+00
BetaAC:  -2.56e-02   -2.41e-07    4.24e-06   -4.20e+00   -1.62e+01
Cbx:      0.00e+00    0.00e+00    0.00e+00    0.00e+00    0.00e+00
Ft:       2.92e-02    3.09e-02    1.66e+02    1.91e-02    1.35e+05

Name:     q:u1:5      q:u1:6      q:u1:7      q:u1:8      q:u1:9
Model:    u1:qnpn     u1:qnpn     u1:qnpn     u1:qnpn     u1:qnpn
Ib:       1.71e-03    3.18e-05    4.23e-09    3.71e-07    2.36e-07
Ic:      -8.37e-03   -1.58e-04   -2.12e-08    3.18e-05    1.66e-05
Vbe:     -2.26e-01    1.18e-01   -3.78e-02    5.12e-01    4.96e-01
Vbc:      6.54e-01    5.48e-01    3.17e-01    0.00e+00    1.34e-01
Vce:     -8.80e-01   -4.30e-01   -3.55e-01    5.12e-01    3.62e-01
BetaDC:  -4.90e+00   -4.96e+00   -5.00e+00    8.58e+01    7.03e+01
Gm:      -2.50e-01   -4.87e-03   -6.54e-07    1.23e-03    6.40e-04
Rpi:      2.79e+11    5.01e+08    1.00e+10    9.78e+04    1.62e+05
Rx:       1.37e+00    1.37e+00    1.37e+00    1.37e+00    1.37e+00
Ro:       4.00e+00    2.05e+02    1.53e+06    3.48e+06    6.64e+06
Cbe:      2.70e-11    3.12e-11    2.90e-11    4.21e-11    4.13e-11
Cbc:      2.25e-08    4.41e-10    1.83e-11    1.52e-11    1.62e-11
Cjs:      0.00e+00    0.00e+00    0.00e+00    0.00e+00    0.00e+00
BetaAC:  -6.98e+10   -2.44e+06   -6.56e+03    1.20e+02    1.04e+02
Cbx:      0.00e+00    0.00e+00    0.00e+00    0.00e+00    0.00e+00
Ft:       1.77e+06    1.64e+06    2.20e+03    3.41e+06    1.77e+06

Name:     q:u1:10     q:u1:11     q:u1:12     q:u1:13
Model:    u1:qnpn     u1:qnpn     u1:qnpn     u1:qnpn
Ib:       1.69e-08    2.45e-04   -7.72e-12    6.62e-05
Ic:       1.83e-07   -2.96e-09    9.12e-14   -3.26e-04
Vbe:      3.79e-01    6.06e-01   -6.48e-02    2.73e-01
Vbc:     -1.66e-01    6.00e-01   -7.08e-02    5.67e-01
Vce:      5.44e-01    6.05e-03    6.05e-03   -2.93e-01
BetaDC:   1.08e+01   -1.21e-05   -1.18e-02   -4.93e+00
Gm:       7.06e-06    9.12e-03    5.36e-14   -1.00e-02
Rpi:      2.90e+06    3.99e+03    1.68e+10    2.44e+07
Rx:       1.37e+00    1.37e+00    1.37e+00    1.37e+00
Ro:       6.09e+08    2.82e+01    4.91e+12    9.95e+01
Cbe:      3.72e-11    6.23e-11    2.87e-11    3.43e-11
Cbc:      1.42e-11    3.15e-09    1.48e-11    8.93e-10
Cjs:      0.00e+00    0.00e+00    0.00e+00    0.00e+00
BetaAC:   2.05e+01    3.64e+01    8.99e-04   -2.45e+05
Cbx:      0.00e+00    0.00e+00    0.00e+00    0.00e+00
Ft:       2.18e+04    4.52e+05    2.18e-01    1.72e+06



Date: Thu Oct 26 21:19:59 2023
Total elapsed time: 0.223 seconds.

tnom = 27
temp = 27
method = trap
totiter = 37
traniter = 0
tranpoints = 0
accept = 0
rejected = 0
matrix size = 66
fillins = 103
solver = Normal
Avg thread counts: 12.0/0.0/12.0/12.0
Matrix Compiler1: 12.36 KB object code size
Matrix Compiler2:     588 opcodes
